Freq,S11_real,S11_imag,S12_real,S12_imag,S21_real,S21_imag,S22_real,S22_imag
20000000.0,-0.4539485558,-0.8611848347,-0.000355176916,0.000212355573,0.0002526850214,0.0002256602877,0.9998891087,0.0082593564
20004000.4,-0.4559817213,-0.860711786,-0.0004518022837,-0.0001560336369,-0.0002790376225,6.816099068e-05,1.000550625,0.00784892778
20008000.8,-0.4570184171,-0.8602817716,-9.400815862e-05,-3.301810558e-05,-0.0003206784322,-0.0001011621434,0.9994822447,0.007049078205
20012001.2,-0.4556300221,-0.8599635447,0.0001284633162,0.0001405517041,-4.715882881e-05,-9.958050317e-05,0.9991700878,0.009802790915
20016001.6,-0.4560459687,-0.8610799267,-0.0004003983046,-0.0001206790977,0.0001854081527,-0.0003215607434,0.9995382554,0.007621686179
20020002.0,-0.4582916446,-0.8576836026,-0.0003560421969,-0.0003928816097,6.695433074e-05,-0.0001016854962,0.9999372587,0.008306023157
20024002.4,-0.4606364381,-0.8613243881,0.0002638610582,0.0001934177914,-0.000234642923,-4.048065282e-05,0.9995510008,0.007456866415
20028002.8,-0.4588987677,-0.8613369801,0.0006291365308,0.000107218578,-7.889014238e-05,-0.0001783805706,0.9990759419,0.008046996242
20032003.2,-0.4581358695,-0.8571311826,-2.578843799e-05,0.0004316773493,0.0002232234001,-0.000174667023,1.000541075,0.00793855848
20036003.6,-0.4599513403,-0.8585560489,0.000657146227,-0.0002121282682,-7.32711742e-05,-0.0001201311143,0.9990228295,0.00902725782
20040004.0,-0.4593877963,-0.8568470355,3.446786457e-05,7.838077926e-05,0.0003582650414,-0.0002084049681,0.9994615749,0.008695204348
20044004.4,-0.460756,-0.8608653924,0.000568447637,0.0002953385214,-5.765203739e-05,3.336024141e-05,0.9990529913,0.008426884378
20048004.8,-0.4617973118,-0.8566746066,-0.0003498026134,3.300316637e-05,-0.0002622658898,-0.0001791234431,0.9999391663,0.01015449249
20052005.201,-0.4603727539,-0.858798031,-4.882298658e-05,-0.0001738602258,4.863424429e-06,-0.0001780854634,1.000281768,0.008302324013
20056005.601,-0.4619349214,-0.8560367396,2.516711904e-05,0.0003363737439,0.000419034604,-0.0001701207698,0.9994629686,0.009099513224
20060006.001,-0.4618510268,-0.8572050357,0.0001907017463,0.000345538104,-0.0002517260999,0.0001535349981,0.9988543737,0.008430541557
20064006.401,-0.4634236101,-0.8591502045,-5.044141669e-05,0.0001052502897,0.0004750755747,-0.0003793946639,0.9990488284,0.008850917263
20068006.801,-0.464257568,-0.8546948618,0.0004222310093,-6.459825818e-05,-7.409664298e-05,-0.0005015720527,0.9997535758,0.008493681897
20072007.201,-0.4637959134,-0.8594740347,-0.0003006941995,-0.0002615715801,0.0001187582977,0.0002804019713,0.9993684875,0.008865281275
20076007.601,-0.4655901423,-0.8563461439,9.380487939e-06,0.0002880989743,0.0002934700111,-3.05840513e-05,1.001012809,0.008666093443
20080008.001,-0.4658893419,-0.8555593746,-0.000444295363,-0.0006852376124,-0.0002144189806,0.000153295206,1.000317118,0.008902574187
20084008.401,-0.4624520322,-0.8539935811,0.0002227850202,0.000400879637,-0.0002026129846,-0.0002951422428,0.9997417445,0.008304085263
20088008.801,-0.4645531697,-0.8570386896,3.527574226e-05,4.951481159e-05,5.687749582e-05,-4.129675825e-05,0.999812423,0.008509492324
20092009.201,-0.4688890044,-0.8559793993,-0.0002672041759,0.000528018455,-0.0001668674743,0.0001267079313,0.9990038462,0.008289246024
20096009.601,-0.4650830803,-0.8539174311,9.862861113e-05,1.844743728e-05,-0.0001411067656,-0.0004335165381,0.9987913382,0.008460437549
20100010.001,-0.4672660213,-0.8538149791,-0.0003103494694,7.648062436e-05,5.191452117e-05,-4.643293932e-05,0.9987750247,0.00917435397
20104010.401,-0.4692167646,-0.8546804526,-0.0002997151714,0.0001064556366,-0.0001831721624,-0.0001814866388,0.9992188282,0.009495985931
20108010.801,-0.4692358888,-0.8524489288,-7.267927631e-05,-0.0001182202998,0.0001200142132,0.0002947333472,0.9992520652,0.007217559847
20112011.201,-0.4689928233,-0.852666545,0.0001103066103,0.0001927120714,0.0003641729573,0.0001662159159,0.9996774696,0.008898822903
20116011.601,-0.4708267358,-0.8543311132,-8.966443258e-05,9.652344666e-05,-2.460811957e-05,-5.0812309e-05,1.000169578,0.007770549402
20120012.001,-0.4696340506,-0.8553817487,0.0003235150726,0.0001749852815,0.0001868110266,-1.732610914e-05,1.000053221,0.008116602905
20124012.401,-0.4721288885,-0.8497460764,0.000441759089,-0.0003280852374,-4.302695659e-05,-0.0001005843665,0.9996849111,0.008474599333
20128012.801,-0.469808081,-0.8521173403,5.616353177e-06,-7.420296068e-06,0.0003868697845,0.0001138254299,0.9998562099,0.008037832194
20132013.201,-0.4703132554,-0.8516748915,-0.0002989303399,9.819527269e-05,-3.449246356e-05,-0.0003146465191,0.9991653376,0.00846616264
20136013.601,-0.4707214987,-0.8516604777,0.0002382517944,7.242227066e-05,-4.807041198e-05,7.358461243e-05,1.000124687,0.009239353792
20140014.001,-0.4761280502,-0.8501476681,0.0001668805098,0.0005289954571,0.0001425408397,-2.608651797e-05,0.9987914173,0.007539470554
20144014.401,-0.4737214498,-0.8533808396,0.0001188803925,-0.0002287524801,-1.845898422e-05,3.515329764e-06,1.00002317,0.009207628685
20148014.801,-0.4750371082,-0.8518323901,-0.0002201941471,-0.0001762694554,9.345764885e-05,-0.000314898919,0.9997871751,0.008741999747
20152015.202,-0.4735037458,-0.8487750388,-0.0005208830445,-0.000561392545,-0.0002058468183,0.0003234321876,0.9996279647,0.008575582513
20156015.602,-0.4743089798,-0.8515034658,8.540999986e-05,0.0001670192129,0.0001630570528,-2.134702782e-05,0.9997223763,0.008102905531
20160016.002,-0.4729720505,-0.8521945064,-0.0003585566081,0.0002309732098,9.991125171e-05,2.228678787e-05,1.000613984,0.009728390187
20164016.402,-0.4744063313,-0.85001287,-0.0001301009733,2.165253461e-05,0.0003332365106,0.0001812058702,0.9995040803,0.008415290233
20168016.802,-0.4738395045,-0.8495571901,-0.0002953275047,0.0003521590949,0.0002574942113,-9.670522671e-05,1.000097951,0.007952232168
20172017.202,-0.4768969073,-0.8508750107,0.0001043716761,3.842795862e-05,0.0002381006805,0.0001611338204,0.9997060069,0.008160131172
20176017.602,-0.479141777,-0.8503117449,-0.0001319575685,-0.0002793123722,-5.052016187e-05,3.816595367e-06,1.00007624,0.009048113379
20180018.002,-0.4785232802,-0.8480552381,-0.0001638547751,0.0001579959973,-7.053737321e-05,0.0001276850186,0.9998001818,0.009883543648
20184018.402,-0.4776108641,-0.8513665843,-0.0002146520609,-7.145115197e-05,0.0003244739649,1.792005451e-05,0.9984008185,0.01062716371
20188018.802,-0.4774479148,-0.8471678905,0.0004179290656,0.0001858066931,-0.000375553453,0.0004479817959,1.000462138,0.008710836931
20192019.202,-0.4794158353,-0.8489696375,-0.0001445611773,-1.968335297e-05,-4.001978762e-05,-0.0005327488687,1.000178636,0.009021983008
20196019.602,-0.4769656633,-0.8473610319,-0.0004376833311,-0.0002473428277,0.0001999907679,6.265868994e-05,1.00045155,0.009851809592
20200020.002,-0.480241147,-0.8451621208,-0.0001153496903,-0.0001345860065,-0.0001067405026,-0.0002424601345,0.9990245513,0.008339738492
20204020.402,-0.4801840388,-0.8482667402,0.0001431923812,0.0002359532312,1.478944134e-05,-0.0002301484693,0.9999340022,0.008317010869
20208020.802,-0.4778801054,-0.8475008285,0.000741019958,0.00036254551,9.756610479e-06,-0.000267741013,0.9994670766,0.009160378921
20212021.202,-0.4813732211,-0.8456808715,-0.0002031691373,-0.0003149886947,0.0001626744926,-0.0001682928835,0.9992396425,0.009446844061
20216021.602,-0.4821732996,-0.8465126059,-0.0002425995238,-0.0001054949257,-0.0001690373484,0.0001453588665,1.000016221,0.008126047516
20220022.002,-0.4821788442,-0.8471837665,0.0001307507533,-0.0004865744943,-0.0001040674655,-8.427882214e-05,1.000555319,0.009063932463
20224022.402,-0.4801021937,-0.8454061423,0.0001265029369,-0.000177239244,-5.431989543e-05,0.0005317729252,0.9991622542,0.00845204096
20228022.802,-0.4812025139,-0.8432360945,-0.0007006119303,0.0001892150049,3.844714961e-05,0.0002760368379,1.00012981,0.008821883085
20232023.202,-0.4819912789,-0.8448428707,9.665952256e-05,0.0005131909229,4.003540434e-05,0.0001682582355,0.9987240779,0.007947771764
20236023.602,-0.4817885107,-0.8446641547,-0.0001821247128,0.0003038379536,5.01953798e-05,-0.0001519672232,0.9994068867,0.008601374206
20240024.002,-0.4848784466,-0.8432550344,0.0001320828459,0.0002970711906,-0.0001761669123,-0.0002702444104,0.999725876,0.009162485689
20244024.402,-0.4836839656,-0.8444112405,-0.0001171107953,0.0003604416088,7.39417538e-05,0.0004894354577,0.9990416849,0.008703269963
20248024.802,-0.4842944431,-0.8445242932,-3.890060358e-05,-0.0003523955325,-4.395994452e-05,-0.0002275016862,1.000056558,0.0084337316
20252025.203,-0.48783342,-0.8442525396,0.0006850904563,-0.0003267328388,9.087631538e-05,-8.073221692e-05,0.9992378152,0.008895304716
20256025.603,-0.4866839235,-0.8441326944,0.0001700940673,0.0001276042785,-0.000526270348,9.427032487e-05,0.9990311893,0.008395307052
20260026.003,-0.4851716139,-0.8432079773,1.791030054e-05,-0.0003934062114,0.0001279226407,8.178955456e-05,0.9978911683,0.008904984165
20264026.403,-0.4876585467,-0.8432958478,9.850493637e-05,0.0001845025638,0.0001897975292,-0.0001239388191,1.000090696,0.008649460485
20268026.803,-0.4872430054,-0.8431085228,-0.0001811072244,-2.703919536e-05,-0.0002498458625,-4.955727154e-05,0.9998823566,0.009646579581
20272027.203,-0.4862630967,-0.8421421228,-0.0001390938051,0.0002718610657,0.0001714482334,-0.0003592703546,1.000112877,0.008086568918
20276027.603,-0.4862315333,-0.8419271689,-1.193350637e-05,-0.0002787426397,-5.497570788e-05,-0.0002426982295,0.9999169523,0.009047577399
20280028.003,-0.4866877758,-0.8433218671,6.924316778e-06,-4.043031938e-05,0.0001492563055,0.0003012414034,0.9996979133,0.008156997917
20284028.403,-0.4915059789,-0.8429711611,0.0002884138084,0.0003837410476,0.000395786951,0.0001765248203,0.999946935,0.009217774172
20288028.803,-0.4886703675,-0.8438681575,-0.0007153683238,-0.0003194494787,-0.0004090180971,0.0004090057585,1.000412692,0.008656310097
20292029.203,-0.4903044178,-0.8417672907,-0.0003147201642,8.29084067e-05,-6.701179516e-05,-7.672400926e-05,0.9997025538,0.009518692335
20296029.603,-0.4908695566,-0.8417782863,-7.708163292e-05,0.0003995492719,7.523437689e-05,4.511944035e-05,1.000221076,0.008462833858
20300030.003,-0.4872135597,-0.8400517155,3.634932743e-05,-1.283550351e-05,-9.898225137e-05,-0.0003363359732,0.9995966398,0.008319843941
20304030.403,-0.4900514116,-0.8392991131,0.0002170237074,-0.0004314709875,-0.0005301870694,-0.0001207869033,0.9991973402,0.009470022764
20308030.803,-0.4904134167,-0.8389894668,-0.0001849616011,0.000215067874,-0.0003384319762,5.710296065e-05,0.9992808794,0.007498722539
20312031.203,-0.4909796133,-0.840249222,-9.70513759e-05,0.0003321498292,3.008481186e-05,0.0004925928297,0.9994341526,0.01016470438
20316031.603,-0.4926429494,-0.8394735305,6.573510139e-05,0.0003390121577,0.0001124546744,0.0006083818634,0.9998810022,0.008460650786
20320032.003,-0.4931701918,-0.8376493463,0.0001520335052,-0.0001269290654,-0.0002440778704,0.0003099258263,1.000130379,0.008080257421
20324032.403,-0.4936087702,-0.8405059703,1.437518073e-05,-0.0003907430452,-0.0001257331536,-0.0001887122006,0.999430204,0.008972804357
20328032.803,-0.4939111121,-0.8377046398,-0.0002803452449,-0.000278915382,7.332846618e-05,-2.491054144e-05,0.997799655,0.008502992688
20332033.203,-0.4940348158,-0.8372613235,-0.000354381756,-8.943825089e-05,-0.0004493620971,-2.674751859e-05,0.9994653251,0.008983794095
20336033.603,-0.4943136119,-0.8370045757,5.749024309e-05,-0.0002053971861,-0.0003607913757,9.786700942e-05,1.000613442,0.008345882419
20340034.003,-0.4953093366,-0.8382814033,-0.0004763596619,0.0002278887036,-0.0001241575116,-5.308213492e-05,0.9996568192,0.008227303761
20344034.403,-0.4984144918,-0.8382372241,1.32849601e-05,9.4444482e-05,4.327057788e-05,2.662644478e-06,0.9987529788,0.008846025553
20348034.803,-0.4999553565,-0.8385642261,-3.808434181e-05,-0.0001012533905,0.0002495496267,0.0003253480243,1.000873018,0.008235203524
20352035.204,-0.4966898141,-0.8361481362,-5.834270724e-05,0.0002988921637,5.545113402e-05,-0.0004367564389,0.9989040317,0.008591339947
20356035.604,-0.4968731935,-0.8356132335,0.0003963172024,-0.0002048400419,-0.0001261514403,0.0002414142091,0.9988407537,0.007811176186
20360036.004,-0.4960400423,-0.8366215055,2.920498854e-06,-0.000169668055,0.0001297563339,-0.0005256458898,1.000901069,0.009441581064
20364036.404,-0.4958269437,-0.8360428386,0.0001615378824,-0.0003512145329,0.000249874724,0.0001441412401,0.9995951958,0.009128019202
20368036.804,-0.4982054787,-0.835230668,-2.150435781e-05,-5.07873091e-05,3.050003384e-06,0.0002170760869,0.9989723468,0.008156669343
20372037.204,-0.4964422929,-0.8362912387,0.0001921046743,1.113616163e-05,7.138373508e-05,-1.605845247e-05,0.998995144,0.009479083334
20376037.604,-0.4989177862,-0.8342094773,0.0008435384878,0.0001878449917,5.442451883e-05,0.0003748810459,1.000019329,0.008971565884
20380038.004,-0.498913594,-0.8360924604,-0.0004591281293,0.0001046449026,0.000100497142,0.0003165131845,0.9990096563,0.008116692118
20384038.404,-0.4971275863,-0.8329356431,0.0004999086058,-0.0002621898293,-0.0001546638431,9.765731374e-05,0.9991241681,0.007873913804
20388038.804,-0.5035574694,-0.8323631827,8.348136546e-05,-0.0003501449963,1.089524976e-05,-0.0001316021505,0.9987222113,0.006724081826
20392039.204,-0.5026547224,-0.8339107571,8.403918016e-06,-0.0002011700776,-0.0003415124522,-0.0002579611396,0.9991927506,0.009139709941
20396039.604,-0.5002512113,-0.8336182839,-0.0002209170412,5.606485543e-05,-0.0002717253538,0.0001417252559,1.000410857,0.008426581241
20400040.004,-0.5033727667,-0.8329886102,-0.0002602804007,-3.445238761e-05,-0.0002274351784,0.0001786332512,0.9985302612,0.007753115601
20404040.404,-0.5042933416,-0.8337395174,6.584015029e-05,-0.0003311401891,3.589543525e-05,-3.115963939e-05,1.000138482,0.009203363678
20408040.804,-0.5026259495,-0.8332737995,-2.902244797e-05,-9.780487329e-05,-0.0002658511437,0.0002528836074,0.9993446616,0.008441113162
20412041.204,-0.5031436862,-0.8338412071,0.0001810473606,0.0001198787151,-9.017531666e-05,-5.022515773e-05,1.000503052,0.00856690092
20416041.604,-0.5031998555,-0.8341294217,-0.0003488094722,-0.0003200662262,0.0001018573256,0.0002356109817,0.9985718473,0.009292484923
20420042.004,-0.5081715623,-0.8343445129,-0.0001049488509,0.0002531368655,0.0001769671886,0.0001858067818,0.9997399659,0.01012061086
20424042.404,-0.5037925844,-0.8310633565,-0.000340512239,-7.615280716e-05,-1.450954315e-05,-8.872586797e-05,0.9998242802,0.007140473316
20428042.804,-0.5025462696,-0.8347734905,-9.274320448e-05,0.0002333811721,-9.693620066e-05,0.0003567718857,0.9996024381,0.009566932461
20432043.204,-0.5067531595,-0.8298849545,-0.0003924831248,0.0003879497668,0.000173748168,-0.0001401719662,0.9977528497,0.009486667296
20436043.604,-0.5071791453,-0.8310164604,3.855544985e-05,-0.0001118039707,-0.0002219878904,0.0004333165704,1.000488667,0.008961804118
20440044.004,-0.5060570144,-0.8312632897,2.50496174e-06,-0.000126829098,9.320563154e-05,0.0002479381094,0.9986095067,0.01031496936
20444044.404,-0.5081683957,-0.8295966143,-0.0005200984905,-4.865590073e-05,0.0004088322537,0.0006555670353,0.998958567,0.009106607788
20448044.804,-0.506495997,-0.8297447613,0.0002880849185,8.663894546e-05,-0.0002792789054,-0.000156510745,1.000952282,0.009401683233
20452045.205,-0.5086630101,-0.8284127343,-0.000175258995,0.0003061162418,-0.0002872401564,-6.245729627e-05,0.9989651501,0.008531137464
20456045.605,-0.5093842484,-0.8301786449,-3.695203374e-05,1.977592447e-05,0.0002032300083,-9.215110997e-05,0.998903323,0.008509310824
20460046.005,-0.5065771001,-0.8306338362,0.0002161737649,-0.0001294597339,0.0001996240074,0.0001252126485,0.9991073557,0.008171929883
20464046.405,-0.5089807476,-0.8309333145,0.0003287045884,-2.039820835e-07,-1.843468732e-05,5.785900081e-05,0.9999256168,0.008500644496
20468046.805,-0.5081500703,-0.8300787355,0.0005323080923,-0.0007652124152,0.0001030174257,-6.589661864e-06,0.9997580032,0.006697840832
20472047.205,-0.5098435449,-0.8289439144,0.000207815274,0.0001779403619,-0.0001139237509,0.0005895264147,1.000130234,0.007436732812
20476047.605,-0.5129002356,-0.8256426728,-0.0002053919588,-8.876005055e-05,3.072322457e-05,1.108134135e-05,1.000655481,0.01007335036
20480048.005,-0.509249798,-0.8273829136,7.201246228e-05,9.343890684e-05,1.7318377e-05,0.0002538820459,0.9985785117,0.007535951267
20484048.405,-0.5130116267,-0.8265697446,-7.863010072e-05,0.0002402788513,-6.495466176e-05,-0.0001993030492,0.9987950229,0.008835846502
20488048.805,-0.510831396,-0.8262543994,-0.0004674467386,7.417522993e-05,6.264897097e-05,0.0002135679543,1.000342277,0.008261180798
20492049.205,-0.5124744322,-0.8272743921,0.0001745465453,-0.0004918362733,-0.0002969339182,-2.411885236e-05,0.9990275664,0.009402567393
20496049.605,-0.5142699977,-0.8253397216,0.0004479837371,0.0002680885157,0.0001714642603,0.0002721931628,1.000545443,0.009165752274
20500050.005,-0.5147343607,-0.8258169169,-0.0001088000588,-0.0003948346187,2.718240201e-05,-1.970902162e-05,1.00041202,0.00987524933
20504050.405,-0.5134860824,-0.8269399014,-5.096328342e-05,2.609049775e-05,-7.780488573e-05,-0.0001105560903,0.9989780837,0.01042858166
20508050.805,-0.5153442182,-0.8270655414,-0.0001324421547,-0.0001313962686,-0.0001807137634,0.0001832874485,1.000640622,0.009369134073
20512051.205,-0.5139801195,-0.8261097289,0.0002526900742,0.0001999971526,-0.0001261860289,-0.0001376262638,0.9998459734,0.009586461586
20516051.605,-0.5153926357,-0.8278045935,-5.540637807e-05,-0.0003014843212,0.000404285501,-0.0001447561862,0.9987433819,0.008656053337
20520052.005,-0.5171685204,-0.821000105,0.0002485003558,-6.73527619e-05,-0.0002225028295,1.731509244e-05,0.9997154943,0.009469201989
20524052.405,-0.5146332993,-0.8248530478,9.905196471e-05,0.0002659144914,-0.0001395735878,-5.1446876e-05,1.000023731,0.009149886874
20528052.805,-0.5162028477,-0.8220302802,-0.0003884947044,-0.0002610128497,0.0001737515229,0.0001993951259,0.9989223764,0.008324272517
20532053.205,-0.5167484832,-0.8234323269,-0.0002031540963,-0.0002421388548,9.074529348e-05,-0.0002181060048,0.9999243179,0.00851944906
20536053.605,-0.5166940332,-0.8216581687,-0.0003173152923,-3.157961631e-05,1.976158378e-05,-0.0003545871694,0.9992783621,0.009036406476
20540054.005,-0.5178044258,-0.8235585741,4.267853302e-05,-0.0001602173447,8.93785288e-05,2.300608565e-05,0.9999585298,0.008929872481
20544054.405,-0.5191198905,-0.8225731519,-2.998701242e-05,-0.000250985731,0.0004907879704,-0.0001808349301,0.9991109572,0.008761675309
20548054.805,-0.5197985274,-0.8204100953,-0.0001133597617,6.251869374e-05,-0.0001121972301,-0.0002656237226,0.9999201051,0.008210614426
20552055.206,-0.5175137855,-0.8257452528,-0.0005312880819,3.835960951e-05,-8.238987975e-05,5.251778775e-05,0.998535272,0.009292381455
20556055.606,-0.5194696287,-0.8204545694,-0.0002554183164,0.0002053522637,-2.136353373e-05,0.0004186095617,1.000643783,0.009133572469
20560056.006,-0.5190699283,-0.8214824023,-0.000469074612,-0.0003670470853,-0.0003902963443,-0.0002587616406,0.9989903073,0.009749326845
20564056.406,-0.5203511934,-0.8231371208,8.023164038e-05,0.0005111066405,0.0001094740449,-0.0003800839068,0.9995483233,0.008276241868
20568056.806,-0.5234681247,-0.8228158983,-0.0001231330151,0.0001667853301,-0.0003379970382,4.773451352e-05,1.000107754,0.00932447976
20572057.206,-0.521874114,-0.8224771555,-5.19154004e-05,0.0002198521495,-4.549922845e-05,0.0003069313679,0.998352064,0.008386002678
20576057.606,-0.5230204206,-0.8208666099,-0.0002283685718,0.000102927659,-6.666058685e-05,-0.0001801706506,0.9996656628,0.008575289551
20580058.006,-0.5237635813,-0.8212157195,0.0005149416021,-0.0004266204654,-0.0001187777465,2.14157599e-05,0.9985423866,0.009280226989
20584058.406,-0.5246560325,-0.8185196199,0.0003821944765,0.0002928080621,-0.0004115962867,0.0005337577672,1.001393364,0.007434182319
20588058.806,-0.5216421831,-0.8198435068,-0.0003521351939,0.000364572677,-7.286204276e-05,0.0001687860695,0.9998535247,0.008222312105
